<Qucs Dataset 0.0.19>
<indep frequency 201>
  +3.30000000000000000000e+06
  +3.34339302999631175771e+06
  +3.38735665243270294741e+06
  +3.43189837025913363323e+06
  +3.47702578508487623185e+06
  +3.52274659847582690418e+06
  +3.56906861326887784526e+06
  +3.61599973490356607363e+06
  +3.66354797277124179527e+06
  +3.71172144158196588978e+06
  +3.76052836274939682335e+06
  +3.80997706579387187958e+06
  +3.86007598976394860074e+06
  +3.91083368467663647607e+06
  +3.96225881297656428069e+06
  +4.01436015101433591917e+06
  +4.06714659054432436824e+06
  +4.12062714024217054248e+06
  +4.17481092724221432582e+06
  +4.22970719869516976178e+06
  +4.28532532334625907242e+06
  +4.34167479313411470503e+06
  +4.39876522481069061905e+06
  +4.45660636158249154687e+06
  +4.51520807477337215096e+06
  +4.57458036550919990987e+06
  +4.63473336642467882484e+06
  +4.69567734339261054993e+06
  +4.75742269727589562535e+06
  +4.81997996570257097483e+06
  +4.88335982486419286579e+06
  +4.94757309133786614984e+06
  +5.01263072393222060055e+06
  +5.07854382555768266320e+06
  +5.14532364512132201344e+06
  +5.21298157944662030786e+06
  +5.28152917521848436445e+06
  +5.35097813095383346081e+06
  +5.42134029899810347706e+06
  +5.49262768754799384624e+06
  +5.56485246270082611591e+06
  +5.63802695053083449602e+06
  +5.71216363919277396053e+06
  +5.78727518105317931622e+06
  +5.86337439484964869916e+06
  +5.94047426787853427231e+06
  +6.01858795821137446910e+06
  +6.09772879694049898535e+06
  +6.17791029045413900167e+06
  +6.25914612274147290736e+06
  +6.34145015772796515375e+06
  +6.42483644164142198861e+06
  +6.50931920540916267782e+06
  +6.59491286708670482039e+06
  +6.68163203431839123368e+06
  +6.76949150683035887778e+06
  +6.85850627895631827414e+06
  +6.94869154219651501626e+06
  +7.04006268781035020947e+06
  +7.13263530944309942424e+06
  +7.22642520578716602176e+06
  +7.32144838327832520008e+06
  +7.41772105882743187249e+06
  +7.51525966258802916855e+06
  +7.61408084076037909836e+06
  +7.71420145843233726919e+06
  +7.81563860245759598911e+06
  +7.91840958437176980078e+06
  +8.02253194334684032947e+06
  +8.12802344918442144990e+06
  +8.23490210534841846675e+06
  +8.34318615203753300011e+06
  +8.45289406929819472134e+06
  +8.56404458017840795219e+06
  +8.67665665392308495939e+06
  +8.79074950921138375998e+06
  +8.90634261743661947548e+06
  +9.02345570602930337191e+06
  +9.14210876182388700545e+06
  +9.26232203446975722909e+06
  +9.38411603988710604608e+06
  +9.50751156376822479069e+06
  +9.63252966512485407293e+06
  +9.75919167988216690719e+06
  +9.88751922452000901103e+06
  +1.00175341997620444745e+07
  +1.01492587943133637309e+07
  +1.02827154886472970247e+07
  +1.04179270588419679552e+07
  +1.05549165804673377424e+07
  +1.06937074325233362615e+07
  +1.08343233014297802001e+07
  +1.09767881850687749684e+07
  +1.11211263968802485615e+07
  +1.12673625700113400817e+07
  +1.14155216615203768015e+07
  +1.15656289566361065954e+07
  +1.17177100730729345232e+07
  +1.18717909654029142112e+07
  +1.20278979294852409512e+07
  +1.21860576069539487362e+07
  +1.23462969897646587342e+07
  +1.25086434248010925949e+07
  +1.26731246185421738774e+07
  +1.28397686417904775590e+07
  +1.30086039344628769904e+07
  +1.31796593104441780597e+07
  +1.33529639625045657158e+07
  +1.35285474672817308456e+07
  +1.37064397903284821659e+07
  +1.38866712912267763168e+07
  +1.40692727287689372897e+07
  +1.42542752662070486695e+07
  +1.44417104765713550150e+07
  +1.46316103480586018413e+07
  +1.48240072894912287593e+07
  +1.50189341358483303338e+07
  +1.52164241538693923503e+07
  +1.54165110477316528559e+07
  +1.56192289648021701723e+07
  +1.58246125014654770494e+07
  +1.60326967090279366821e+07
  +1.62435170996996387839e+07
  +1.64571096526550538838e+07
  +1.66735108201733157039e+07
  +1.68927575338592603803e+07
  +1.71148872109462879598e+07
  +1.73399377606820687652e+07
  +1.75679475907982736826e+07
  +1.77989556140652857721e+07
  +1.80330012549332156777e+07
  +1.82701244562601372600e+07
  +1.85103656861288845539e+07
  +1.87537659447533972561e+07
  +1.90003667714759707451e+07
  +1.92502102518564537168e+07
  +1.95033390248546749353e+07
  +1.97597962901073247194e+07
  +2.00196258153005540371e+07
  +2.02828719436394274235e+07
  +2.05495796014157049358e+07
  +2.08197943056750446558e+07
  +2.10935621719851084054e+07
  +2.13709299223057217896e+07
  +2.16519448929626010358e+07
  +2.19366550427258759737e+07
  +2.22251089609948955476e+07
  +2.25173558760905824602e+07
  +2.28134456636568903923e+07
  +2.31134288551727421582e+07
  +2.34173566465758159757e+07
  +2.37252809069998189807e+07
  +2.40372541876265928149e+07
  +2.43533297306546755135e+07
  +2.46735614783856943250e+07
  +2.49980040824303776026e+07
  +2.53267129130354784429e+07
  +2.56597440685334578156e+07
  +2.59971543849163576961e+07
  +2.63390014455355852842e+07
  +2.66853435909292325377e+07
  +2.70362399287786446512e+07
  +2.73917503439959101379e+07
  +2.77519355089439488947e+07
  +2.81168568937910161912e+07
  +2.84865767770014032722e+07
  +2.88611582559640370309e+07
  +2.92406652577608153224e+07
  +2.96251625500766001642e+07
  +3.00147157522526942194e+07
  +3.04093913464855104685e+07
  +3.08092566891726739705e+07
  +3.12143800224082358181e+07
  +3.16248304856290444732e+07
  +3.20406781274142526090e+07
  +3.24619939174400158226e+07
  +3.28888497585914060473e+07
  +3.33213184992334544659e+07
  +3.37594739456437304616e+07
  +3.42033908746082931757e+07
  +3.46531450461832880974e+07
  +3.51088132166243717074e+07
  +3.55704731514861509204e+07
  +3.60382036388938650489e+07
  +3.65120845029895454645e+07
  +3.69921966175550296903e+07
  +3.74786219198141396046e+07
  +3.79714434244162440300e+07
  +3.84707452376038059592e+07
  +3.89766125715661644936e+07
  +3.94891317589821070433e+07
  +4.00083902677535787225e+07
  +4.05344767159332111478e+07
  +4.10674808868481591344e+07
  +4.16074937444226965308e+07
  +4.21546074487024247646e+07
  +4.27089153715825006366e+07
  +4.32705121127428188920e+07
  +4.38394935157925337553e+07
  +4.44159566846270561218e+07
  +4.50000000000000670552e+07
</indep>
<dep dBS11 frequency>
  -1.54741285353485267251e+01
  -1.53676181284516761849e+01
  -1.52612854321490338805e+01
  -1.51551348244829515721e+01
  -1.50491707837021913008e+01
  -1.49433978902111803677e+01
  -1.48378208285435455593e+01
  -1.47324443893596779276e+01
  -1.46272734714682002277e+01
  -1.45223130838715146496e+01
  -1.44175683478350364908e+01
  -1.43130444989804228584e+01
  -1.42087468894024624433e+01
  -1.41046809898099940739e+01
  -1.40008523916906746365e+01
  -1.38972668094998184074e+01
  -1.37939300828735547100e+01
  -1.36908481788664087020e+01
  -1.35880271942137991203e+01
  -1.34854733576197567402e+01
  -1.33831930320704159953e+01
  -1.32811927171740062903e+01
  -1.31794790515279878207e+01
  -1.30780588151143213338e+01
  -1.29769389317239536297e+01
  -1.28761264714118333075e+01
  -1.27756286529838209987e+01
  -1.26754528465173201823e+01
  -1.25756065759175506003e+01
  -1.24760975215117024817e+01
  -1.23769335226835330843e+01
  -1.22781225805512654858e+01
  -1.21796728606922606275e+01
  -1.20815926959177950550e+01
  -1.19838905891024829486e+01
  -1.18865752160727051745e+01
  -1.17896554285594223899e+01
  -1.16931402572209677260e+01
  -1.15970389147424981502e+01
  -1.15013607990190394048e+01
  -1.14061154964301216808e+01
  -1.13113127852148309671e+01
  -1.12169626389568648506e+01
  -1.11230752301902420243e+01
  -1.10296609341375919655e+01
  -1.09367303325936848779e+01
  -1.08442942179686614423e+01
  -1.07523635975063474035e+01
  -1.06609496976948427971e+01
  -1.05700639688880464462e+01
  -1.04797180901585473833e+01
  -1.03899239744043381251e+01
  -1.03006937737336290439e+01
  -1.02120398851545761687e+01
  -1.01239749565989072266e+01
  -1.00365118933111965305e+01
  -9.94966386463831220510e+00
  -9.86344431125665010995e+00
  -9.77786695287817764211e+00
  -9.69294579647973009173e+00
  -9.60869514510423528009e+00
  -9.52512960728640400987e+00
  -9.44226410716047936944e+00
  -9.36011389531221027482e+00
  -9.27869456044301088582e+00
  -9.19802204192004069228e+00
  -9.11811264329234383297e+00
  -9.03898304686033959854e+00
  -8.96065032939348071750e+00
  -8.88313197909931773211e+00
  -8.80644591395631515240e+00
  -8.73061050153272688590e+00
  -8.65564458042461382092e+00
  -8.58156748345831665858e+00
  -8.50839906281543001398e+00
  -8.43615971725299829131e+00
  -8.36487042160721117057e+00
  -8.29455275878645714727e+00
  -8.22522895447859347939e+00
  -8.15692191481849171453e+00
  -8.08965526728530015532e+00
  -8.02345340512454896498e+00
  -7.95834153561903079321e+00
  -7.89434573256397431607e+00
  -7.83149299333736337303e+00
  -7.76981130099548078505e+00
  -7.70932969186743477508e+00
  -7.65007832917132368777e+00
  -7.59208858322903346050e+00
  -7.53539311891787466635e+00
  -7.48002599106558463404e+00
  -7.42602274857205024716e+00
  -7.37342054812759783999e+00
  -7.32225827849489085963e+00
  -7.27257669643147863781e+00
  -7.22441857545411902919e+00
  -7.17782886878655546070e+00
  -7.13285488799194400400e+00
  -7.08954649897244593149e+00
  -7.04795633722449910152e+00
  -7.00814004447403249287e+00
  -6.97015652908444849345e+00
  -6.93406825293843631641e+00
  -6.89994154784795377111e+00
  -6.86784696495316815401e+00
  -6.83785966103952702611e+00
  -6.81005982624313510598e+00
  -6.78453315824090275044e+00
  -6.76137138874913823372e+00
  -6.74067286899981965576e+00
  -6.72254322185091446329e+00
  -6.70709606934106794540e+00
  -6.69445384585352876172e+00
  -6.68474870864712489293e+00
  -6.67812355939266577565e+00
  -6.67473319257970842955e+00
  -6.67474558930385963862e+00
  -6.67834337809897427007e+00
  -6.68572548825331125499e+00
  -6.69710902558420784203e+00
  -6.71273140611795771093e+00
  -6.73285278975275236490e+00
  -6.75775886405543957380e+00
  -6.78776403821972795782e+00
  -6.82321511935982893959e+00
  -6.86449555833390956394e+00
  -6.91203037097626982188e+00
  -6.96629186400476196894e+00
  -7.02780632434191776525e+00
  -7.09716186799388459860e+00
  -7.17501769247143883490e+00
  -7.26211503842731698199e+00
  -7.35929024644079099460e+00
  -7.46749040028670041380e+00
  -7.58779218789071041584e+00
  -7.72142479882355026177e+00
  -7.86979793198342125748e+00
  -8.03453633760170582434e+00
  -8.21752280666363255079e+00
  -8.42095221352647804736e+00
  -8.64740021543789438851e+00
  -8.89991167699838214844e+00
  -9.18211608035029946961e+00
  -9.49838053976721496952e+00
  -9.85401631140147138410e+00
  -1.02555632011498119027e+01
  -1.07111904583656354362e+01
  -1.12312772480005218512e+01
  -1.18292799234411560860e+01
  -1.25230767479068454406e+01
  -1.33371477822111916822e+01
  -1.43063063915808541537e+01
  -1.54825385786071745287e+01
  -1.69487014556599966397e+01
  -1.88494804020443282866e+01
  -2.14748394005078679925e+01
  -2.55609372967911916419e+01
  -3.43550236383895111203e+01
  -3.57622325530145914740e+01
  -2.54240058093302181419e+01
  -2.06725708206418623547e+01
  -1.75145876632687631513e+01
  -1.51342045466667798337e+01
  -1.32218633799026825670e+01
  -1.16269352674454360397e+01
  -1.02649379754356839811e+01
  -9.08379381955614917388e+00
  -8.04907556964267989486e+00
  -7.13669818332152416929e+00
  -6.32896041340135084852e+00
  -5.61225750485728980266e+00
  -4.97569829258025819740e+00
  -4.41024457601712960297e+00
  -3.90816736026549182981e+00
  -3.46270179645162823334e+00
  -3.06782870559555886913e+00
  -2.71813661238555104305e+00
  -2.40873402943535053211e+00
  -2.13519198305011581596e+00
  -1.89350373677633854186e+00
  -1.68005350508492234951e+00
  -1.49158929239639559405e+00
  -1.32519724147506456902e+00
  -1.17827631747206540425e+00
  -1.04851301469959712342e+00
  -9.33856232105619299411e-01
  -8.32492660109401372281e-01
  -7.42823059803848551041e-01
  -6.63439768476674185393e-01
  -5.93105680958841863237e-01
  -5.30734863689509062112e-01
  -4.75374873562876276711e-01
  -4.26190783847699428133e-01
  -3.82450866686194823618e-01
  -3.43513844897845255222e-01
  -3.08817602672829316646e-01
  -2.77869232447522929164e-01
  -2.50236291116499309783e-01
  -2.25539140399028087414e-01
  -2.03444251728159580805e-01
  -1.83658363977472621764e-01
</dep>
<dep dBS21 frequency>
  -1.24911394861613331275e-01
  -1.28058882977128501990e-01
  -1.31281431771181456014e-01
  -1.34580606932005963916e-01
  -1.37957994670944106286e-01
  -1.41415201270120638455e-01
  -1.44953852574000563447e-01
  -1.48575593421760437929e-01
  -1.52282087016994055473e-01
  -1.56075014231453146341e-01
  -1.59956072839108648376e-01
  -1.63926976676844082803e-01
  -1.67989454727896891928e-01
  -1.72145250123947074483e-01
  -1.76396119061780209947e-01
  -1.80743829630050090174e-01
  -1.85190160541749970768e-01
  -1.89736899767646627346e-01
  -1.94385843065922658823e-01
  -1.99138792402945075111e-01
  -2.03997554260095248502e-01
  -2.08963937821285250518e-01
  -2.14039753035610902376e-01
  -2.19226808549575657992e-01
  -2.24526909502915344996e-01
  -2.29941855182122928403e-01
  -2.35473436525300783284e-01
  -2.41123433472153453350e-01
  -2.46893612152424113404e-01
  -2.52785721906100879774e-01
  -2.58801492128468757503e-01
  -2.64942628932904766792e-01
  -2.71210811624241432405e-01
  -2.77607688975136990273e-01
  -2.84134875297965328045e-01
  -2.90793946304437389561e-01
  -2.97586434744978811651e-01
  -3.04513825819845984633e-01
  -3.11577552353687503572e-01
  -3.18778989725207406725e-01
  -3.26119450543344846505e-01
  -3.33600179061350476939e-01
  -3.41222345319883157977e-01
  -3.48987039010286104190e-01
  -3.56895263048887856350e-01
  -3.64947926853238735490e-01
  -3.73145839310971227931e-01
  -3.81489701431937056064e-01
  -3.89980098674175712503e-01
  -3.98617492934138284433e-01
  -4.07402214191672273902e-01
  -4.16334451799953653151e-01
  -4.25414245410820623938e-01
  -4.34641475525697540405e-01
  -4.44015853662284132319e-01
  -4.53536912127359692626e-01
  -4.63203993385804257965e-01
  -4.73016239016084694136e-01
  -4.82972578242483130406e-01
  -4.93071716034287010899e-01
  -5.03312120762303916166e-01
  -5.13692011403003467862e-01
  -5.24209344280834432794e-01
  -5.34861799339135357556e-01
  -5.45646765930326682614e-01
  -5.56561328116132125743e-01
  -5.67602249468644570740e-01
  -5.78765957363333471974e-01
  -5.90048526755142521694e-01
  -6.01445663429037935543e-01
  -6.12952686716733641248e-01
  -6.24564511671307109886e-01
  -6.36275630691914617643e-01
  -6.48080094591107491730e-01
  -6.59971493097470385258e-01
  -6.71942934786975309969e-01
  -6.83987026436659872886e-01
  -6.96095851795040077015e-01
  -7.08260949764115133043e-01
  -7.20473291988767750027e-01
  -7.32723259850093455725e-01
  -7.45000620860295614811e-01
  -7.57294504457989958723e-01
  -7.69593377204161210869e-01
  -7.81885017380645752638e-01
  -7.94156488995024778532e-01
  -8.06394115198064254102e-01
  -8.18583451122505523223e-01
  -8.30709256155240272079e-01
  -8.42755465658524438588e-01
  -8.54705162160387499348e-01
  -8.66540546039396675226e-01
  -8.78242905734997192368e-01
  -8.89792587521815003804e-01
  -9.01168964894431101520e-01
  -9.12350407619049064145e-01
  -9.23314250519704393660e-01
  -9.34036762080101001793e-01
  -9.44493112957796143725e-01
  -9.54657344525597362228e-01
  -9.64502337576544688247e-01
  -9.73999781353712679177e-01
  -9.83120143095273846257e-01
  -9.91832638319336989952e-01
  -1.00010520211285069969e+00
  -1.00790446173528014384e+00
  -1.01519571090204552277e+00
  -1.02194288617589967849e+00
  -1.02810854596832434993e+00
  -1.03365385273909105024e+00
  -1.03853855908289482990e+00
  -1.04272099850895294537e+00
  -1.04615808185677017228e+00
  -1.04880530045079956025e+00
  -1.05061673728336479883e+00
  -1.05154508773300259250e+00
  -1.05154169157929855416e+00
  -1.05055657837229432516e+00
  -1.04853852856057083720e+00
  -1.04543515318659263613e+00
  -1.04119299542963816840e+00
  -1.03575765782730089271e+00
  -1.02907395964871795080e+00
  -1.02108612964164380266e+00
  -1.01173804024796165635e+00
  -1.00097349039798144688e+00
  -9.88736545175158298981e-01
  -9.74971942014211778726e-01
  -9.59625574685191273794e-01
  -9.42645068153738607819e-01
  -9.23980459526328457009e-01
  -9.03585002722063990177e-01
  -8.81416117293959189283e-01
  -8.57436504982510561135e-01
  -8.31615461148659695922e-01
  -8.03930412214103107260e-01
  -7.74368714628501875197e-01
  -7.42929755647496192772e-01
  -7.09627401258161150110e-01
  -6.74492841777101448386e-01
  -6.37577890718971529438e-01
  -5.98958797101574957900e-01
  -5.58740634841182748360e-01
  -5.17062334467874640254e-01
  -4.74102420895338105833e-01
  -4.30085514826830050961e-01
  -3.85289642461037806775e-01
  -3.40054375749171300392e-01
  -2.94789790130906725896e-01
  -2.49986174330701305113e-01
  -2.06224352749115463768e-01
  -1.64186380334706255590e-01
  -1.24666238129629902698e-01
  -8.85799921446767252187e-02
  -5.69746794867651631944e-02
  -3.10349603731391691930e-02
  -1.20863386422052007663e-02
  -1.59353505551705111609e-03
  -1.15244093669275571301e-03
  -1.24740443355669545361e-02
  -3.73588788227550774868e-02
  -7.76609693512828602735e-02
  -1.35240995466270053083e-01
  -2.11909469727721511134e-01
  -3.09362074905938422287e-01
  -4.29110759407486552774e-01
  -5.72415506640129412297e-01
  -7.40222565976934032683e-01
  -9.33115074554261125783e-01
  -1.15128123619585331916e+00
  -1.39450357427527338317e+00
  -1.66217047844832932491e+00
  -1.95330873621549727659e+00
  -2.26663346019826006383e+00
  -2.60061020143838916852e+00
  -2.95352330948455854553e+00
  -3.32354477171452833417e+00
  -3.70879865752273740753e+00
  -4.10741761936537130850e+00
  -4.51758935843451681080e+00
  -4.93759230095968160157e+00
  -5.36582079741686168717e+00
  -5.80080089072214200030e+00
  -6.24119811314492700660e+00
  -6.68581892136824684769e+00
  -7.13360733822639669910e+00
  -7.58363820975342850517e+00
  -8.03510826656564169923e+00
  -8.48732594255502448277e+00
  -8.93970067932447598480e+00
  -9.39173224718089016960e+00
  -9.84300044919263150689e+00
  -1.02931554443002699628e+01
  -1.07419088258540611491e+01
  -1.11890255187670177861e+01
  -1.16343165068141818352e+01
  -1.20776323668131642108e+01
  -1.25188575644042003887e+01
  -1.29579054535144795324e+01
  -1.33947139156388708159e+01
  -1.38292415737080034432e+01
</dep>
<dep S[1,1] frequency>
  -4.64198519414542182249e-02-j1.61856177912149234999e-01
  -4.75804983584356480653e-02-j1.63683395891650040888e-01
  -4.87683957654196295617e-02-j1.65523392032726646139e-01
  -4.99840933714132684695e-02-j1.67375934419144167808e-01
  -5.12281467579491986419e-02-j1.69240775147762090302e-01
  -5.25011176883670230287e-02-j1.71117649780211322774e-01
  -5.38035738983106276434e-02-j1.73006276783637308325e-01
  -5.51360888665801823771e-02-j1.74906356960691011793e-01
  -5.64992415654492693977e-02-j1.76817572868981282008e-01
  -5.78936161895412179645e-02-j1.78739588230231005728e-01
  -5.93198018623361383872e-02-j1.80672047329425100592e-01
  -6.07783923193684419428e-02-j1.82614574404264540242e-01
  -6.22699855671481686259e-02-j1.84566773025292674149e-01
  -6.37951835168276831789e-02-j1.86528225467089137091e-01
  -6.53545915916245168109e-02-j1.88498492070978962420e-01
  -6.69488183069860687269e-02-j1.90477110599746063402e-01
  -6.85784748224829987517e-02-j1.92463595584883184753e-01
  -7.02441744643936410997e-02-j1.94457437666968574463e-01
  -7.19465322179492494659e-02-j1.96458102929795069835e-01
  -7.36861641881838558277e-02-j1.98465032228943877302e-01
  -7.54636870283465210907e-02-j2.00477640515536903454e-01
  -7.72797173348180044261e-02-j2.02495316155959226290e-01
  -7.91348710074790406832e-02-j2.04517420248403108962e-01
  -8.10297625744812455295e-02-j2.06543285937133003216e-01
  -8.29650044803722785947e-02-j2.08572217725437603075e-01
  -8.49412063365396485803e-02-j2.10603490788283803647e-01
  -8.69589741329449272822e-02-j2.12636350285757225187e-01
  -8.90189094101373756818e-02-j2.14670010678422590322e-01
  -9.11216083905486834427e-02-j2.16703655045803772472e-01
  -9.32676610680983203538e-02-j2.18736434409240065868e-01
